T2CD8 000:005.118   SEGGER J-Link V6.82b Log File
T2CD8 000:005.235   DLL Compiled: Jul 23 2020 16:43:44
T2CD8 000:005.241   Logging started @ 2020-08-14 15:00
T2CD8 000:005.247 - 5.250ms
T2CD8 000:005.257 JLINK_SetWarnOutHandler(...)
T2CD8 000:005.263 - 0.009ms
T2CD8 000:005.270 JLINK_OpenEx(...)
T2CD8 000:006.641   Firmware: J-Link V9 compiled Jun  2 2222 22:22:22
T2CD8 000:006.809   Decompressing FW timestamp took 132 us
T2CD8 000:014.122   Hardware: V9.40
T2CD8 000:014.137   S/N: 81480416
T2CD8 000:014.145   OEM: SEGGER
T2CD8 000:014.153   Feature(s): GDB, RDI, FlashBP, FlashDL, JFlash, RDDI
T2CD8 000:015.231   TELNET listener socket opened on port 19021
T2CD8 000:015.479   WEBSRV Starting webserver
T2CD8 000:015.568   WEBSRV Webserver running on local port 19081
T2CD8 000:015.578 - 10.311ms returns "O.K."
T2CD8 000:015.593 JLINK_GetEmuCaps()
T2CD8 000:015.599 - 0.008ms returns 0xB9FF7BBF
T2CD8 000:015.608 JLINK_TIF_GetAvailable(...)
T2CD8 000:015.776 - 0.174ms
T2CD8 000:015.790 JLINK_SetErrorOutHandler(...)
T2CD8 000:015.796 - 0.008ms
T2CD8 000:015.809 JLINK_ExecCommand("ProjectFile = "C:\Users\Simon\Desktop\self_balancing_car\code\car_code\JLinkSettings.ini"", ...). 
T2CD8 000:023.936   Ref file found at: d:\Keil_v5\ARM\Segger\JLinkDevices.ref
T2CD8 000:024.138   XML referenced by ref file: D:\Program Files (x86)\SEGGER\JLink\JLinkDevices.xml
T2CD8 000:025.057   D:\Program Files (x86)\SEGGER\JLink\JLinkDevices.xml evaluated successfully.
T2CD8 000:124.309 - 108.508ms returns 0x00
T2CD8 000:127.627 JLINK_ExecCommand("Device = STM32F103C8", ...). 
T2CD8 000:129.747   Device "STM32F103C8" selected.
T2CD8 000:130.724 - 3.088ms returns 0x00
T2CD8 000:130.743 JLINK_GetHardwareVersion()
T2CD8 000:130.759 - 0.018ms returns 94000
T2CD8 000:130.769 JLINK_GetDLLVersion()
T2CD8 000:130.774 - 0.008ms returns 68202
T2CD8 000:130.781 JLINK_GetOEMString(...)
T2CD8 000:130.789 JLINK_GetFirmwareString(...)
T2CD8 000:130.794 - 0.008ms
T2CD8 000:136.635 JLINK_GetDLLVersion()
T2CD8 000:136.645 - 0.012ms returns 68202
T2CD8 000:136.652 JLINK_GetCompileDateTime()
T2CD8 000:136.658 - 0.008ms
T2CD8 000:138.568 JLINK_GetFirmwareString(...)
T2CD8 000:138.577 - 0.011ms
T2CD8 000:140.521 JLINK_GetHardwareVersion()
T2CD8 000:140.530 - 0.012ms returns 94000
T2CD8 000:143.389 JLINK_GetSN()
T2CD8 000:143.402 - 0.015ms returns 81480416
T2CD8 000:145.365 JLINK_GetOEMString(...)
T2CD8 000:149.155 JLINK_TIF_Select(JLINKARM_TIF_SWD)
T2CD8 000:149.839 - 0.690ms returns 0x00
T2CD8 000:149.854 JLINK_HasError()
T2CD8 000:149.867 JLINK_SetSpeed(5000)
T2CD8 000:149.995 - 0.135ms
T2CD8 000:150.010 JLINK_GetId()
T2CD8 000:354.374   RESET (pin 15) high, but should be low. Please check target hardware.
T2CD8 000:659.900   RESET (pin 15) high, but should be low. Please check target hardware.
T2CD8 000:965.896   RESET (pin 15) high, but should be low. Please check target hardware.
T2CD8 001:272.374   RESET (pin 15) high, but should be low. Please check target hardware.
T2CD8 001:579.111   RESET (pin 15) high, but should be low. Please check target hardware.
T2CD8 001:635.568   Found SW-DP with ID 0x1BA01477
T2CD8 001:695.417   SWD speed too high. Reduced from 4000 kHz to 1138 kHz for stability
T2CD8 001:706.514   Found SW-DP with ID 0x1BA01477
T2CD8 001:708.330   Old FW that does not support reading DPIDR via DAP jobs
T2CD8 001:711.333   Unknown DP version. Assuming DPv0
T2CD8 001:713.299   Scanning AP map to find all available APs
T2CD8 001:716.174   AP[1]: Stopped AP scan as end of AP map has been reached
T2CD8 001:718.131   AP[0]: AHB-AP (IDR: 0x14770011)
T2CD8 001:721.133   Iterating through AP map to find AHB-AP to use
T2CD8 001:724.318   AP[0]: Core found
T2CD8 001:726.278   AP[0]: AHB-AP ROM base: 0xE00FF000
T2CD8 001:728.969   CPUID register: 0x411FC231. Implementer code: 0x41 (ARM)
T2CD8 001:730.914   Found Cortex-M3 r1p1, Little endian.
T2CD8 001:831.946   -- Max. mem block: 0x00010C80
T2CD8 001:831.970   CPU_ReadMem(4 bytes @ 0xE000EDF0)
T2CD8 001:832.576   CPU_ReadMem(4 bytes @ 0xE0002000)
T2CD8 001:835.230   FPUnit: 6 code (BP) slots and 2 literal slots
T2CD8 001:835.245   CPU_ReadMem(4 bytes @ 0xE000EDFC)
T2CD8 001:835.747   CPU_WriteMem(4 bytes @ 0xE000EDFC)
T2CD8 001:836.306   CPU_ReadMem(4 bytes @ 0xE0001000)
T2CD8 001:836.933   CPU_WriteMem(4 bytes @ 0xE0001000)
T2CD8 001:837.491   CPU_ReadMem(4 bytes @ 0xE000ED88)
T2CD8 001:838.044   CPU_WriteMem(4 bytes @ 0xE000ED88)
T2CD8 001:838.608   CPU_ReadMem(4 bytes @ 0xE000ED88)
T2CD8 001:839.168   CPU_WriteMem(4 bytes @ 0xE000ED88)
T2CD8 001:842.054   CoreSight components:
T2CD8 001:844.326   ROMTbl[0] @ E00FF000
T2CD8 001:844.342   CPU_ReadMem(64 bytes @ 0xE00FF000)
T2CD8 001:845.580   CPU_ReadMem(32 bytes @ 0xE000EFE0)
T2CD8 001:848.444   ROMTbl[0][0]: E000E000, CID: B105E00D, PID: 001BB000 SCS
T2CD8 001:848.457   CPU_ReadMem(32 bytes @ 0xE0001FE0)
T2CD8 001:851.315   ROMTbl[0][1]: E0001000, CID: B105E00D, PID: 001BB002 DWT
T2CD8 001:851.329   CPU_ReadMem(32 bytes @ 0xE0002FE0)
T2CD8 001:854.219   ROMTbl[0][2]: E0002000, CID: B105E00D, PID: 000BB003 FPB
T2CD8 001:854.233   CPU_ReadMem(32 bytes @ 0xE0000FE0)
T2CD8 001:857.147   ROMTbl[0][3]: E0000000, CID: B105E00D, PID: 001BB001 ITM
T2CD8 001:857.162   CPU_ReadMem(32 bytes @ 0xE0040FE0)
T2CD8 001:859.974   ROMTbl[0][4]: E0040000, CID: B105900D, PID: 001BB923 TPIU-Lite
T2CD8 001:860.258 - 1710.254ms returns 0x1BA01477
T2CD8 001:860.274 JLINK_GetDLLVersion()
T2CD8 001:860.280 - 0.008ms returns 68202
T2CD8 001:860.287 JLINK_CORE_GetFound()
T2CD8 001:860.293 - 0.008ms returns 0x30000FF
T2CD8 001:860.302 JLINK_GetDebugInfo(0x100 = JLINKARM_ROM_TABLE_ADDR_INDEX)
T2CD8 001:860.310   Value=0xE00FF000
T2CD8 001:860.318 - 0.018ms returns 0
T2CD8 001:863.560 JLINK_GetDebugInfo(0x100 = JLINKARM_ROM_TABLE_ADDR_INDEX)
T2CD8 001:863.572   Value=0xE00FF000
T2CD8 001:863.579 - 0.022ms returns 0
T2CD8 001:863.587 JLINK_GetDebugInfo(0x101 = JLINKARM_DEBUG_INFO_ETM_ADDR_INDEX)
T2CD8 001:863.593   Value=0x00000000
T2CD8 001:863.600 - 0.016ms returns 0
T2CD8 001:863.608 JLINK_ReadMemEx(0xE0041FF0, 0x10 Bytes, Flags = 0x02000004)
T2CD8 001:863.626   CPU_ReadMem(16 bytes @ 0xE0041FF0)
T2CD8 001:864.229   Data:  00 00 00 00 00 00 00 00 00 00 00 00 00 00 00 00
T2CD8 001:864.240 - 0.634ms returns 16 (0x10)
T2CD8 001:864.248 JLINK_GetDebugInfo(0x102 = JLINKARM_DEBUG_INFO_MTB_ADDR_INDEX)
T2CD8 001:864.254   Value=0x00000000
T2CD8 001:864.262 - 0.016ms returns 0
T2CD8 001:864.269 JLINK_GetDebugInfo(0x103 = JLINKARM_DEBUG_INFO_TPIU_ADDR_INDEX)
T2CD8 001:864.275   Value=0xE0040000
T2CD8 001:864.282 - 0.016ms returns 0
T2CD8 001:864.289 JLINK_GetDebugInfo(0x104 = JLINKARM_DEBUG_INFO_ITM_ADDR_INDEX)
T2CD8 001:864.294   Value=0xE0000000
T2CD8 001:864.302 - 0.015ms returns 0
T2CD8 001:864.309 JLINK_GetDebugInfo(0x105 = JLINKARM_DEBUG_INFO_DWT_ADDR_INDEX)
T2CD8 001:864.314   Value=0xE0001000
T2CD8 001:864.322 - 0.015ms returns 0
T2CD8 001:864.329 JLINK_GetDebugInfo(0x106 = JLINKARM_DEBUG_INFO_FPB_ADDR_INDEX)
T2CD8 001:864.334   Value=0xE0002000
T2CD8 001:864.342 - 0.015ms returns 0
T2CD8 001:864.349 JLINK_GetDebugInfo(0x107 = JLINKARM_DEBUG_INFO_NVIC_ADDR_INDEX)
T2CD8 001:864.354   Value=0xE000E000
T2CD8 001:864.362 - 0.015ms returns 0
T2CD8 001:864.368 JLINK_GetDebugInfo(0x10C = JLINKARM_DEBUG_INFO_DBG_ADDR_INDEX)
T2CD8 001:864.374   Value=0xE000EDF0
T2CD8 001:864.382 - 0.015ms returns 0
T2CD8 001:864.388 JLINK_GetDebugInfo(0x01 = Unknown)
T2CD8 001:864.396   Value=0x00000000
T2CD8 001:864.403 - 0.017ms returns 0
T2CD8 001:864.410 JLINK_ReadMemU32(0xE000ED00, 0x1 Items)
T2CD8 001:864.419   CPU_ReadMem(4 bytes @ 0xE000ED00)
T2CD8 001:864.977   Data:  31 C2 1F 41
T2CD8 001:864.989   Debug reg: CPUID
T2CD8 001:864.997 - 0.589ms returns 1 (0x1)
T2CD8 001:865.006 JLINK_GetDebugInfo(0x10F = JLINKARM_DEBUG_INFO_HAS_CORTEX_M_SECURITY_EXT_INDEX)
T2CD8 001:865.012   Value=0x00000000
T2CD8 001:865.020 - 0.016ms returns 0
T2CD8 001:865.027 JLINK_HasError()
T2CD8 001:865.035 JLINK_SetResetType(JLINKARM_CM3_RESET_TYPE_NORMAL)
T2CD8 001:865.040 - 0.008ms returns JLINKARM_CM3_RESET_TYPE_NORMAL
T2CD8 001:865.049 JLINK_Reset()
T2CD8 001:865.065   CPU is running
T2CD8 001:865.075   CPU_WriteMem(4 bytes @ 0xE000EDF0)
T2CD8 001:865.638   CPU is running
T2CD8 001:865.650   CPU_WriteMem(4 bytes @ 0xE000EDFC)
T2CD8 001:868.189   Reset: Halt core after reset via DEMCR.VC_CORERESET.
T2CD8 001:870.620   Reset: Reset device via AIRCR.SYSRESETREQ.
T2CD8 001:870.645   CPU is running
T2CD8 001:870.654   CPU_WriteMem(4 bytes @ 0xE000ED0C)
T2CD8 001:923.166   CPU_ReadMem(4 bytes @ 0xE000EDF0)
T2CD8 001:923.742   CPU_ReadMem(4 bytes @ 0xE000EDF0)
T2CD8 001:924.299   CPU is running
T2CD8 001:924.317   CPU_WriteMem(4 bytes @ 0xE000EDF0)
T2CD8 001:924.913   CPU is running
T2CD8 001:924.930   CPU_WriteMem(4 bytes @ 0xE000EDFC)
T2CD8 001:931.283   CPU_ReadMem(4 bytes @ 0xE000EDF0)
T2CD8 001:937.660   CPU_WriteMem(4 bytes @ 0xE0002000)
T2CD8 001:938.220   CPU_ReadMem(4 bytes @ 0xE000EDFC)
T2CD8 001:938.733   CPU_ReadMem(4 bytes @ 0xE0001000)
T2CD8 001:939.241 - 74.205ms
T2CD8 001:939.273 JLINK_Halt()
T2CD8 001:939.285 - 0.017ms returns 0x00
T2CD8 001:939.300 JLINK_ReadMemU32(0xE000EDF0, 0x1 Items)
T2CD8 001:939.320   CPU_ReadMem(4 bytes @ 0xE000EDF0)
T2CD8 001:939.905   Data:  03 00 03 00
T2CD8 001:939.929   Debug reg: DHCSR
T2CD8 001:939.945 - 0.650ms returns 1 (0x1)
T2CD8 001:939.966 JLINK_WriteU32_64(0xE000EDF0, 0xA05F0003)
T2CD8 001:939.983   Debug reg: DHCSR
T2CD8 001:940.017   CPU_WriteMem(4 bytes @ 0xE000EDF0)
T2CD8 001:940.578 - 0.627ms returns 0 (0x00000000)
T2CD8 001:940.612 JLINK_WriteU32_64(0xE000EDFC, 0x01000000)
T2CD8 001:940.630   Debug reg: DEMCR
T2CD8 001:940.659   CPU_WriteMem(4 bytes @ 0xE000EDFC)
T2CD8 001:941.212 - 0.614ms returns 0 (0x00000000)
T2CD8 001:959.691 JLINK_GetHWStatus(...)
T2CD8 001:959.903 - 0.227ms returns 0
T2CD8 001:972.358 JLINK_GetNumBPUnits(Type = 0xFFFFFF00)
T2CD8 001:972.370 - 0.014ms returns 0x06
T2CD8 001:972.377 JLINK_GetNumBPUnits(Type = 0xF0)
T2CD8 001:972.383 - 0.008ms returns 0x2000
T2CD8 001:972.390 JLINK_GetNumWPUnits()
T2CD8 001:972.395 - 0.008ms returns 4
T2CD8 001:978.117 JLINK_GetSpeed()
T2CD8 001:978.129 - 0.015ms returns 1091
T2CD8 001:981.896 JLINK_ReadMemU32(0xE000E004, 0x1 Items)
T2CD8 001:981.915   CPU_ReadMem(4 bytes @ 0xE000E004)
T2CD8 001:982.503   Data:  01 00 00 00
T2CD8 001:982.515 - 0.621ms returns 1 (0x1)
T2CD8 001:982.525 JLINK_ReadMemU32(0xE000E004, 0x1 Items)
T2CD8 001:982.534   CPU_ReadMem(4 bytes @ 0xE000E004)
T2CD8 001:983.099   Data:  01 00 00 00
T2CD8 001:983.111 - 0.589ms returns 1 (0x1)
T2CD8 001:983.120 JLINK_WriteMemEx(0xE0001000, 0x0000001C Bytes, Flags = 0x02000004)
T2CD8 001:983.127   Data:  01 00 00 00 00 00 00 00 00 00 00 00 00 00 00 00 ...
T2CD8 001:983.341   CPU_WriteMem(28 bytes @ 0xE0001000)
T2CD8 001:984.206 - 1.092ms returns 0x1C
T2CD8 001:984.222 JLINK_Halt()
T2CD8 001:984.228 - 0.009ms returns 0x00
T2CD8 001:984.235 JLINK_IsHalted()
T2CD8 001:984.241 - 0.009ms returns TRUE
T2CD8 001:987.361 JLINK_WriteMem(0x20000000, 0x164 Bytes, ...)
T2CD8 001:987.371   Data:  00 BE 0A E0 0D 78 2D 06 68 40 08 24 40 00 00 D3 ...
T2CD8 001:987.576   CPU_WriteMem(356 bytes @ 0x20000000)
T2CD8 001:992.308 - 4.955ms returns 0x164
T2CD8 001:992.340 JLINK_HasError()
T2CD8 001:992.350 JLINK_WriteReg(R0, 0x08000000)
T2CD8 001:992.358 - 0.011ms returns 0
T2CD8 001:992.365 JLINK_WriteReg(R1, 0x00B71B00)
T2CD8 001:992.371 - 0.008ms returns 0
T2CD8 001:992.378 JLINK_WriteReg(R2, 0x00000001)
T2CD8 001:992.383 - 0.008ms returns 0
T2CD8 001:992.390 JLINK_WriteReg(R3, 0x00000000)
T2CD8 001:992.396 - 0.008ms returns 0
T2CD8 001:992.403 JLINK_WriteReg(R4, 0x00000000)
T2CD8 001:992.408 - 0.008ms returns 0
T2CD8 001:992.415 JLINK_WriteReg(R5, 0x00000000)
T2CD8 001:992.421 - 0.008ms returns 0
T2CD8 001:992.428 JLINK_WriteReg(R6, 0x00000000)
T2CD8 001:992.433 - 0.008ms returns 0
T2CD8 001:992.440 JLINK_WriteReg(R7, 0x00000000)
T2CD8 001:992.446 - 0.008ms returns 0
T2CD8 001:992.452 JLINK_WriteReg(R8, 0x00000000)
T2CD8 001:992.458 - 0.008ms returns 0
T2CD8 001:992.465 JLINK_WriteReg(R9, 0x20000160)
T2CD8 001:992.473 - 0.011ms returns 0
T2CD8 001:992.480 JLINK_WriteReg(R10, 0x00000000)
T2CD8 001:992.486 - 0.008ms returns 0
T2CD8 001:992.493 JLINK_WriteReg(R11, 0x00000000)
T2CD8 001:992.499 - 0.008ms returns 0
T2CD8 001:992.505 JLINK_WriteReg(R12, 0x00000000)
T2CD8 001:992.511 - 0.008ms returns 0
T2CD8 001:992.518 JLINK_WriteReg(R13 (SP), 0x20001000)
T2CD8 001:992.524 - 0.009ms returns 0
T2CD8 001:992.531 JLINK_WriteReg(R14, 0x20000001)
T2CD8 001:992.537 - 0.010ms returns 0
T2CD8 001:992.546 JLINK_WriteReg(R15 (PC), 0x20000038)
T2CD8 001:992.555 - 0.012ms returns 0
T2CD8 001:992.562 JLINK_WriteReg(XPSR, 0x01000000)
T2CD8 001:992.568 - 0.008ms returns 0
T2CD8 001:992.575 JLINK_WriteReg(MSP, 0x20001000)
T2CD8 001:992.580 - 0.008ms returns 0
T2CD8 001:992.587 JLINK_WriteReg(PSP, 0x20001000)
T2CD8 001:992.593 - 0.008ms returns 0
T2CD8 001:992.601 JLINK_WriteReg(CFBP, 0x00000000)
T2CD8 001:992.607 - 0.008ms returns 0
T2CD8 001:992.614 JLINK_SetBPEx(Addr = 0x20000000, Type = 0xFFFFFFF2)
T2CD8 001:992.623   CPU_ReadMem(2 bytes @ 0x20000000)
T2CD8 001:993.187 - 0.579ms returns 0x00000001
T2CD8 001:993.201 JLINK_Go()
T2CD8 001:993.210   CPU_WriteMem(2 bytes @ 0x20000000)
T2CD8 001:993.767   CPU_ReadMem(4 bytes @ 0xE0001000)
T2CD8 001:994.326   CPU_WriteMem(4 bytes @ 0xE0002008)
T2CD8 001:994.339   CPU_WriteMem(4 bytes @ 0xE000200C)
T2CD8 001:994.347   CPU_WriteMem(4 bytes @ 0xE0002010)
T2CD8 001:994.355   CPU_WriteMem(4 bytes @ 0xE0002014)
T2CD8 001:994.363   CPU_WriteMem(4 bytes @ 0xE0002018)
T2CD8 001:994.371   CPU_WriteMem(4 bytes @ 0xE000201C)
T2CD8 001:996.597   CPU_WriteMem(4 bytes @ 0xE0001004)
T2CD8 002:002.402 - 9.207ms
T2CD8 002:002.417 JLINK_IsHalted()
T2CD8 002:008.080   CPU_ReadMem(2 bytes @ 0x20000000)
T2CD8 002:008.633 - 6.223ms returns TRUE
T2CD8 002:008.648 JLINK_ReadReg(R15 (PC))
T2CD8 002:008.656 - 0.010ms returns 0x20000000
T2CD8 002:008.664 JLINK_ClrBPEx(BPHandle = 0x00000001)
T2CD8 002:008.670 - 0.008ms returns 0x00
T2CD8 002:008.677 JLINK_ReadReg(R0)
T2CD8 002:008.683 - 0.008ms returns 0x00000000
T2CD8 002:008.928 JLINK_HasError()
T2CD8 002:008.938 JLINK_WriteReg(R0, 0x08000000)
T2CD8 002:008.946 - 0.010ms returns 0
T2CD8 002:008.953 JLINK_WriteReg(R1, 0x00B71B00)
T2CD8 002:008.958 - 0.008ms returns 0
T2CD8 002:008.965 JLINK_WriteReg(R2, 0x00000001)
T2CD8 002:008.971 - 0.008ms returns 0
T2CD8 002:008.978 JLINK_WriteReg(R3, 0x00000000)
T2CD8 002:008.983 - 0.008ms returns 0
T2CD8 002:008.990 JLINK_WriteReg(R4, 0x00000000)
T2CD8 002:008.996 - 0.008ms returns 0
T2CD8 002:009.003 JLINK_WriteReg(R5, 0x00000000)
T2CD8 002:009.008 - 0.008ms returns 0
T2CD8 002:009.015 JLINK_WriteReg(R6, 0x00000000)
T2CD8 002:009.021 - 0.008ms returns 0
T2CD8 002:009.027 JLINK_WriteReg(R7, 0x00000000)
T2CD8 002:009.033 - 0.008ms returns 0
T2CD8 002:009.040 JLINK_WriteReg(R8, 0x00000000)
T2CD8 002:009.046 - 0.008ms returns 0
T2CD8 002:009.052 JLINK_WriteReg(R9, 0x20000160)
T2CD8 002:009.058 - 0.008ms returns 0
T2CD8 002:009.065 JLINK_WriteReg(R10, 0x00000000)
T2CD8 002:009.070 - 0.008ms returns 0
T2CD8 002:009.077 JLINK_WriteReg(R11, 0x00000000)
T2CD8 002:009.083 - 0.008ms returns 0
T2CD8 002:009.090 JLINK_WriteReg(R12, 0x00000000)
T2CD8 002:009.095 - 0.008ms returns 0
T2CD8 002:009.102 JLINK_WriteReg(R13 (SP), 0x20001000)
T2CD8 002:009.108 - 0.008ms returns 0
T2CD8 002:009.115 JLINK_WriteReg(R14, 0x20000001)
T2CD8 002:009.120 - 0.008ms returns 0
T2CD8 002:009.127 JLINK_WriteReg(R15 (PC), 0x2000007C)
T2CD8 002:009.133 - 0.008ms returns 0
T2CD8 002:009.140 JLINK_WriteReg(XPSR, 0x01000000)
T2CD8 002:009.145 - 0.008ms returns 0
T2CD8 002:009.152 JLINK_WriteReg(MSP, 0x20001000)
T2CD8 002:009.158 - 0.008ms returns 0
T2CD8 002:009.164 JLINK_WriteReg(PSP, 0x20001000)
T2CD8 002:009.170 - 0.008ms returns 0
T2CD8 002:009.177 JLINK_WriteReg(CFBP, 0x00000000)
T2CD8 002:009.182 - 0.008ms returns 0
T2CD8 002:009.189 JLINK_SetBPEx(Addr = 0x20000000, Type = 0xFFFFFFF2)
T2CD8 002:009.196 - 0.009ms returns 0x00000002
T2CD8 002:009.203 JLINK_Go()
T2CD8 002:009.253   CPU_ReadMem(4 bytes @ 0xE0001000)
T2CD8 002:014.900 - 5.704ms
T2CD8 002:014.913 JLINK_IsHalted()
T2CD8 002:015.579 - 0.671ms returns FALSE
T2CD8 002:015.591 JLINK_HasError()
T2CD8 002:032.522 JLINK_IsHalted()
T2CD8 002:033.122 - 0.607ms returns FALSE
T2CD8 002:033.136 JLINK_HasError()
T2CD8 002:034.532 JLINK_IsHalted()
T2CD8 002:035.108 - 0.582ms returns FALSE
T2CD8 002:035.123 JLINK_HasError()
T2CD8 002:036.521 JLINK_IsHalted()
T2CD8 002:037.112 - 0.597ms returns FALSE
T2CD8 002:037.125 JLINK_HasError()
T2CD8 002:038.225 JLINK_IsHalted()
T2CD8 002:043.906   CPU_ReadMem(2 bytes @ 0x20000000)
T2CD8 002:044.473 - 6.254ms returns TRUE
T2CD8 002:044.490 JLINK_ReadReg(R15 (PC))
T2CD8 002:044.498 - 0.011ms returns 0x20000000
T2CD8 002:044.506 JLINK_ClrBPEx(BPHandle = 0x00000002)
T2CD8 002:044.512 - 0.008ms returns 0x00
T2CD8 002:044.519 JLINK_ReadReg(R0)
T2CD8 002:044.525 - 0.008ms returns 0x00000000
T2CD8 002:097.472 JLINK_HasError()
T2CD8 002:097.542 JLINK_WriteReg(R0, 0x00000001)
T2CD8 002:097.585 - 0.058ms returns 0
T2CD8 002:097.623 JLINK_WriteReg(R1, 0x00B71B00)
T2CD8 002:097.654 - 0.044ms returns 0
T2CD8 002:097.690 JLINK_WriteReg(R2, 0x00000001)
T2CD8 002:097.719 - 0.043ms returns 0
T2CD8 002:097.755 JLINK_WriteReg(R3, 0x00000000)
T2CD8 002:097.784 - 0.043ms returns 0
T2CD8 002:097.820 JLINK_WriteReg(R4, 0x00000000)
T2CD8 002:097.853 - 0.047ms returns 0
T2CD8 002:097.888 JLINK_WriteReg(R5, 0x00000000)
T2CD8 002:097.918 - 0.043ms returns 0
T2CD8 002:097.953 JLINK_WriteReg(R6, 0x00000000)
T2CD8 002:097.982 - 0.043ms returns 0
T2CD8 002:098.018 JLINK_WriteReg(R7, 0x00000000)
T2CD8 002:098.047 - 0.043ms returns 0
T2CD8 002:098.082 JLINK_WriteReg(R8, 0x00000000)
T2CD8 002:098.111 - 0.043ms returns 0
T2CD8 002:098.147 JLINK_WriteReg(R9, 0x20000160)
T2CD8 002:098.176 - 0.043ms returns 0
T2CD8 002:098.211 JLINK_WriteReg(R10, 0x00000000)
T2CD8 002:098.241 - 0.043ms returns 0
T2CD8 002:098.276 JLINK_WriteReg(R11, 0x00000000)
T2CD8 002:098.305 - 0.043ms returns 0
T2CD8 002:098.341 JLINK_WriteReg(R12, 0x00000000)
T2CD8 002:098.369 - 0.042ms returns 0
T2CD8 002:098.405 JLINK_WriteReg(R13 (SP), 0x20001000)
T2CD8 002:098.436 - 0.045ms returns 0
T2CD8 002:098.472 JLINK_WriteReg(R14, 0x20000001)
T2CD8 002:098.501 - 0.043ms returns 0
T2CD8 002:098.536 JLINK_WriteReg(R15 (PC), 0x2000006A)
T2CD8 002:098.566 - 0.043ms returns 0
T2CD8 002:098.602 JLINK_WriteReg(XPSR, 0x01000000)
T2CD8 002:098.631 - 0.043ms returns 0
T2CD8 002:098.666 JLINK_WriteReg(MSP, 0x20001000)
T2CD8 002:098.695 - 0.042ms returns 0
T2CD8 002:098.730 JLINK_WriteReg(PSP, 0x20001000)
T2CD8 002:098.760 - 0.043ms returns 0
T2CD8 002:098.795 JLINK_WriteReg(CFBP, 0x00000000)
T2CD8 002:098.824 - 0.045ms returns 0
T2CD8 002:098.863 JLINK_SetBPEx(Addr = 0x20000000, Type = 0xFFFFFFF2)
T2CD8 002:098.896 - 0.048ms returns 0x00000003
T2CD8 002:098.933 JLINK_Go()
T2CD8 002:098.991   CPU_ReadMem(4 bytes @ 0xE0001000)
T2CD8 002:105.067 - 6.166ms
T2CD8 002:105.133 JLINK_IsHalted()
T2CD8 002:111.079   CPU_ReadMem(2 bytes @ 0x20000000)
T2CD8 002:111.773 - 6.672ms returns TRUE
T2CD8 002:111.848 JLINK_ReadReg(R15 (PC))
T2CD8 002:111.889 - 0.056ms returns 0x20000000
T2CD8 002:111.933 JLINK_ClrBPEx(BPHandle = 0x00000003)
T2CD8 002:111.965 - 0.046ms returns 0x00
T2CD8 002:112.016 JLINK_ReadReg(R0)
T2CD8 002:112.047 - 0.045ms returns 0x00000000
T2CD8 002:130.454 JLINK_WriteMem(0x20000000, 0x164 Bytes, ...)
T2CD8 002:130.466   Data:  00 BE 0A E0 0D 78 2D 06 68 40 08 24 40 00 00 D3 ...
T2CD8 002:130.482   CPU_WriteMem(356 bytes @ 0x20000000)
T2CD8 002:135.210 - 4.762ms returns 0x164
T2CD8 002:135.238 JLINK_HasError()
T2CD8 002:135.247 JLINK_WriteReg(R0, 0x08000000)
T2CD8 002:135.255 - 0.010ms returns 0
T2CD8 002:135.262 JLINK_WriteReg(R1, 0x00B71B00)
T2CD8 002:135.268 - 0.008ms returns 0
T2CD8 002:135.275 JLINK_WriteReg(R2, 0x00000002)
T2CD8 002:135.281 - 0.008ms returns 0
T2CD8 002:135.287 JLINK_WriteReg(R3, 0x00000000)
T2CD8 002:135.293 - 0.008ms returns 0
T2CD8 002:135.300 JLINK_WriteReg(R4, 0x00000000)
T2CD8 002:135.308 - 0.011ms returns 0
T2CD8 002:135.316 JLINK_WriteReg(R5, 0x00000000)
T2CD8 002:135.321 - 0.008ms returns 0
T2CD8 002:135.328 JLINK_WriteReg(R6, 0x00000000)
T2CD8 002:135.334 - 0.008ms returns 0
T2CD8 002:135.341 JLINK_WriteReg(R7, 0x00000000)
T2CD8 002:135.346 - 0.008ms returns 0
T2CD8 002:135.353 JLINK_WriteReg(R8, 0x00000000)
T2CD8 002:135.359 - 0.008ms returns 0
T2CD8 002:135.365 JLINK_WriteReg(R9, 0x20000160)
T2CD8 002:135.371 - 0.008ms returns 0
T2CD8 002:135.378 JLINK_WriteReg(R10, 0x00000000)
T2CD8 002:135.384 - 0.008ms returns 0
T2CD8 002:135.390 JLINK_WriteReg(R11, 0x00000000)
T2CD8 002:135.396 - 0.008ms returns 0
T2CD8 002:135.403 JLINK_WriteReg(R12, 0x00000000)
T2CD8 002:135.408 - 0.008ms returns 0
T2CD8 002:135.415 JLINK_WriteReg(R13 (SP), 0x20001000)
T2CD8 002:135.421 - 0.008ms returns 0
T2CD8 002:135.428 JLINK_WriteReg(R14, 0x20000001)
T2CD8 002:135.434 - 0.008ms returns 0
T2CD8 002:135.441 JLINK_WriteReg(R15 (PC), 0x20000038)
T2CD8 002:135.447 - 0.008ms returns 0
T2CD8 002:135.453 JLINK_WriteReg(XPSR, 0x01000000)
T2CD8 002:135.459 - 0.008ms returns 0
T2CD8 002:135.466 JLINK_WriteReg(MSP, 0x20001000)
T2CD8 002:135.472 - 0.008ms returns 0
T2CD8 002:135.478 JLINK_WriteReg(PSP, 0x20001000)
T2CD8 002:135.484 - 0.008ms returns 0
T2CD8 002:135.491 JLINK_WriteReg(CFBP, 0x00000000)
T2CD8 002:135.496 - 0.008ms returns 0
T2CD8 002:135.503 JLINK_SetBPEx(Addr = 0x20000000, Type = 0xFFFFFFF2)
T2CD8 002:135.512   CPU_ReadMem(2 bytes @ 0x20000000)
T2CD8 002:136.076 - 0.579ms returns 0x00000004
T2CD8 002:136.089 JLINK_Go()
T2CD8 002:136.098   CPU_WriteMem(2 bytes @ 0x20000000)
T2CD8 002:136.690   CPU_ReadMem(4 bytes @ 0xE0001000)
T2CD8 002:142.420 - 6.339ms
T2CD8 002:142.437 JLINK_IsHalted()
T2CD8 002:148.089   CPU_ReadMem(2 bytes @ 0x20000000)
T2CD8 002:148.662 - 6.231ms returns TRUE
T2CD8 002:148.676 JLINK_ReadReg(R15 (PC))
T2CD8 002:148.684 - 0.010ms returns 0x20000000
T2CD8 002:148.692 JLINK_ClrBPEx(BPHandle = 0x00000004)
T2CD8 002:148.698 - 0.008ms returns 0x00
T2CD8 002:148.705 JLINK_ReadReg(R0)
T2CD8 002:148.711 - 0.008ms returns 0x00000000
T2CD8 002:148.938 JLINK_WriteMem(0x20000164, 0x29C Bytes, ...)
T2CD8 002:148.947   Data:  60 0B 00 20 91 01 00 08 99 01 00 08 9B 01 00 08 ...
T2CD8 002:148.961   CPU_WriteMem(668 bytes @ 0x20000164)
T2CD8 002:157.231 - 8.299ms returns 0x29C
T2CD8 002:157.244 JLINK_WriteMem(0x20000400, 0x164 Bytes, ...)
T2CD8 002:157.251   Data:  00 00 00 00 2D 00 00 00 2B 00 00 00 20 00 00 00 ...
T2CD8 002:157.264   CPU_WriteMem(356 bytes @ 0x20000400)
T2CD8 002:162.040 - 4.802ms returns 0x164
T2CD8 002:162.053 JLINK_HasError()
T2CD8 002:162.061 JLINK_WriteReg(R0, 0x08000000)
T2CD8 002:162.069 - 0.010ms returns 0
T2CD8 002:162.076 JLINK_WriteReg(R1, 0x00000400)
T2CD8 002:162.082 - 0.008ms returns 0
T2CD8 002:162.089 JLINK_WriteReg(R2, 0x20000164)
T2CD8 002:162.095 - 0.008ms returns 0
T2CD8 002:162.102 JLINK_WriteReg(R3, 0x00000000)
T2CD8 002:162.107 - 0.008ms returns 0
T2CD8 002:162.114 JLINK_WriteReg(R4, 0x00000000)
T2CD8 002:162.120 - 0.008ms returns 0
T2CD8 002:162.127 JLINK_WriteReg(R5, 0x00000000)
T2CD8 002:162.132 - 0.008ms returns 0
T2CD8 002:162.139 JLINK_WriteReg(R6, 0x00000000)
T2CD8 002:162.144 - 0.008ms returns 0
T2CD8 002:162.151 JLINK_WriteReg(R7, 0x00000000)
T2CD8 002:162.157 - 0.008ms returns 0
T2CD8 002:162.164 JLINK_WriteReg(R8, 0x00000000)
T2CD8 002:162.169 - 0.008ms returns 0
T2CD8 002:162.176 JLINK_WriteReg(R9, 0x20000160)
T2CD8 002:162.182 - 0.008ms returns 0
T2CD8 002:162.188 JLINK_WriteReg(R10, 0x00000000)
T2CD8 002:162.194 - 0.008ms returns 0
T2CD8 002:162.201 JLINK_WriteReg(R11, 0x00000000)
T2CD8 002:162.206 - 0.008ms returns 0
T2CD8 002:162.213 JLINK_WriteReg(R12, 0x00000000)
T2CD8 002:162.219 - 0.008ms returns 0
T2CD8 002:162.225 JLINK_WriteReg(R13 (SP), 0x20001000)
T2CD8 002:162.232 - 0.009ms returns 0
T2CD8 002:162.239 JLINK_WriteReg(R14, 0x20000001)
T2CD8 002:162.244 - 0.008ms returns 0
T2CD8 002:162.251 JLINK_WriteReg(R15 (PC), 0x200000F4)
T2CD8 002:162.259 - 0.011ms returns 0
T2CD8 002:162.267 JLINK_WriteReg(XPSR, 0x01000000)
T2CD8 002:162.272 - 0.008ms returns 0
T2CD8 002:162.279 JLINK_WriteReg(MSP, 0x20001000)
T2CD8 002:162.285 - 0.008ms returns 0
T2CD8 002:162.292 JLINK_WriteReg(PSP, 0x20001000)
T2CD8 002:162.297 - 0.008ms returns 0
T2CD8 002:162.304 JLINK_WriteReg(CFBP, 0x00000000)
T2CD8 002:162.310 - 0.008ms returns 0
T2CD8 002:162.317 JLINK_SetBPEx(Addr = 0x20000000, Type = 0xFFFFFFF2)
T2CD8 002:162.323 - 0.009ms returns 0x00000005
T2CD8 002:162.330 JLINK_Go()
T2CD8 002:162.340   CPU_ReadMem(4 bytes @ 0xE0001000)
T2CD8 002:168.113 - 5.789ms
T2CD8 002:168.127 JLINK_IsHalted()
T2CD8 002:168.740 - 0.620ms returns FALSE
T2CD8 002:168.754 JLINK_HasError()
T2CD8 002:172.732 JLINK_IsHalted()
T2CD8 002:173.349 - 0.624ms returns FALSE
T2CD8 002:173.363 JLINK_HasError()
T2CD8 002:174.727 JLINK_IsHalted()
T2CD8 002:175.321 - 0.600ms returns FALSE
T2CD8 002:175.335 JLINK_HasError()
T2CD8 002:176.423 JLINK_IsHalted()
T2CD8 002:177.011 - 0.594ms returns FALSE
T2CD8 002:177.025 JLINK_HasError()
T2CD8 002:178.415 JLINK_IsHalted()
T2CD8 002:179.000 - 0.591ms returns FALSE
T2CD8 002:179.014 JLINK_HasError()
T2CD8 002:180.849 JLINK_IsHalted()
T2CD8 002:181.459 - 0.616ms returns FALSE
T2CD8 002:181.473 JLINK_HasError()
T2CD8 002:182.582 JLINK_IsHalted()
T2CD8 002:183.187 - 0.611ms returns FALSE
T2CD8 002:183.201 JLINK_HasError()
T2CD8 002:184.324 JLINK_IsHalted()
T2CD8 002:184.884 - 0.566ms returns FALSE
T2CD8 002:184.898 JLINK_HasError()
T2CD8 002:186.306 JLINK_IsHalted()
T2CD8 002:186.949 - 0.650ms returns FALSE
T2CD8 002:186.964 JLINK_HasError()
T2CD8 002:188.228 JLINK_IsHalted()
T2CD8 002:188.733 - 0.511ms returns FALSE
T2CD8 002:188.746 JLINK_HasError()
T2CD8 002:190.803 JLINK_IsHalted()
T2CD8 002:191.486 - 0.715ms returns FALSE
T2CD8 002:191.552 JLINK_HasError()
T2CD8 002:193.520 JLINK_IsHalted()
T2CD8 002:194.231 - 0.743ms returns FALSE
T2CD8 002:194.297 JLINK_HasError()
T2CD8 002:196.270 JLINK_IsHalted()
T2CD8 002:197.000 - 0.763ms returns FALSE
T2CD8 002:197.067 JLINK_HasError()
T2CD8 002:199.041 JLINK_IsHalted()
T2CD8 002:204.959   CPU_ReadMem(2 bytes @ 0x20000000)
T2CD8 002:205.649 - 6.640ms returns TRUE
T2CD8 002:205.723 JLINK_ReadReg(R15 (PC))
T2CD8 002:205.763 - 0.055ms returns 0x20000000
T2CD8 002:205.807 JLINK_ClrBPEx(BPHandle = 0x00000005)
T2CD8 002:205.838 - 0.046ms returns 0x00
T2CD8 002:205.890 JLINK_ReadReg(R0)
T2CD8 002:205.921 - 0.045ms returns 0x00000000
T2CD8 002:207.781 JLINK_WriteMem(0x20000164, 0x29C Bytes, ...)
T2CD8 002:207.829   Data:  88 42 01 D9 01 20 10 BD 4F F0 FF 30 10 BD 1A B1 ...
T2CD8 002:207.904   CPU_WriteMem(668 bytes @ 0x20000164)
T2CD8 002:216.271 - 8.522ms returns 0x29C
T2CD8 002:216.337 JLINK_WriteMem(0x20000400, 0x164 Bytes, ...)
T2CD8 002:216.371   Data:  68 46 FF F7 05 FE 0F B0 00 BD 00 00 E5 FF FF FF ...
T2CD8 002:216.434   CPU_WriteMem(356 bytes @ 0x20000400)
T2CD8 002:221.277 - 4.973ms returns 0x164
T2CD8 002:221.345 JLINK_HasError()
T2CD8 002:221.385 JLINK_WriteReg(R0, 0x08000400)
T2CD8 002:221.425 - 0.054ms returns 0
T2CD8 002:221.462 JLINK_WriteReg(R1, 0x00000400)
T2CD8 002:221.493 - 0.044ms returns 0
T2CD8 002:221.528 JLINK_WriteReg(R2, 0x20000164)
T2CD8 002:221.558 - 0.043ms returns 0
T2CD8 002:221.594 JLINK_WriteReg(R3, 0x00000000)
T2CD8 002:221.623 - 0.043ms returns 0
T2CD8 002:221.658 JLINK_WriteReg(R4, 0x00000000)
T2CD8 002:221.687 - 0.043ms returns 0
T2CD8 002:221.723 JLINK_WriteReg(R5, 0x00000000)
T2CD8 002:221.752 - 0.043ms returns 0
T2CD8 002:221.787 JLINK_WriteReg(R6, 0x00000000)
T2CD8 002:221.816 - 0.043ms returns 0
T2CD8 002:221.852 JLINK_WriteReg(R7, 0x00000000)
T2CD8 002:221.881 - 0.043ms returns 0
T2CD8 002:221.916 JLINK_WriteReg(R8, 0x00000000)
T2CD8 002:221.945 - 0.043ms returns 0
T2CD8 002:221.981 JLINK_WriteReg(R9, 0x20000160)
T2CD8 002:222.010 - 0.042ms returns 0
T2CD8 002:222.045 JLINK_WriteReg(R10, 0x00000000)
T2CD8 002:222.075 - 0.043ms returns 0
T2CD8 002:222.110 JLINK_WriteReg(R11, 0x00000000)
T2CD8 002:222.145 - 0.053ms returns 0
T2CD8 002:222.186 JLINK_WriteReg(R12, 0x00000000)
T2CD8 002:222.215 - 0.043ms returns 0
T2CD8 002:222.261 JLINK_WriteReg(R13 (SP), 0x20001000)
T2CD8 002:222.293 - 0.046ms returns 0
T2CD8 002:222.329 JLINK_WriteReg(R14, 0x20000001)
T2CD8 002:222.358 - 0.043ms returns 0
T2CD8 002:222.394 JLINK_WriteReg(R15 (PC), 0x200000F4)
T2CD8 002:222.424 - 0.044ms returns 0
T2CD8 002:222.459 JLINK_WriteReg(XPSR, 0x01000000)
T2CD8 002:222.489 - 0.043ms returns 0
T2CD8 002:222.524 JLINK_WriteReg(MSP, 0x20001000)
T2CD8 002:222.554 - 0.043ms returns 0
T2CD8 002:222.589 JLINK_WriteReg(PSP, 0x20001000)
T2CD8 002:222.618 - 0.043ms returns 0
T2CD8 002:222.653 JLINK_WriteReg(CFBP, 0x00000000)
T2CD8 002:222.683 - 0.043ms returns 0
T2CD8 002:222.718 JLINK_SetBPEx(Addr = 0x20000000, Type = 0xFFFFFFF2)
T2CD8 002:222.751 - 0.047ms returns 0x00000006
T2CD8 002:222.787 JLINK_Go()
T2CD8 002:222.839   CPU_ReadMem(4 bytes @ 0xE0001000)
T2CD8 002:229.025 - 6.270ms
T2CD8 002:229.091 JLINK_IsHalted()
T2CD8 002:229.814 - 0.756ms returns FALSE
T2CD8 002:229.881 JLINK_HasError()
T2CD8 002:235.062 JLINK_IsHalted()
T2CD8 002:235.780 - 0.750ms returns FALSE
T2CD8 002:235.846 JLINK_HasError()
T2CD8 002:237.500 JLINK_IsHalted()
T2CD8 002:238.210 - 0.742ms returns FALSE
T2CD8 002:238.277 JLINK_HasError()
T2CD8 002:240.254 JLINK_IsHalted()
T2CD8 002:241.014 - 0.815ms returns FALSE
T2CD8 002:241.103 JLINK_HasError()
T2CD8 002:243.237 JLINK_IsHalted()
T2CD8 002:243.947 - 0.742ms returns FALSE
T2CD8 002:244.014 JLINK_HasError()
T2CD8 002:245.981 JLINK_IsHalted()
T2CD8 002:246.691 - 0.741ms returns FALSE
T2CD8 002:246.757 JLINK_HasError()
T2CD8 002:248.610 JLINK_IsHalted()
T2CD8 002:249.314 - 0.737ms returns FALSE
T2CD8 002:249.381 JLINK_HasError()
T2CD8 002:251.603 JLINK_IsHalted()
T2CD8 002:252.322 - 0.752ms returns FALSE
T2CD8 002:252.388 JLINK_HasError()
T2CD8 002:254.599 JLINK_IsHalted()
T2CD8 002:255.326 - 0.759ms returns FALSE
T2CD8 002:255.393 JLINK_HasError()
T2CD8 002:257.144 JLINK_IsHalted()
T2CD8 002:257.865 - 0.753ms returns FALSE
T2CD8 002:257.931 JLINK_HasError()
T2CD8 002:260.137 JLINK_IsHalted()
T2CD8 002:266.029   CPU_ReadMem(2 bytes @ 0x20000000)
T2CD8 002:266.758 - 6.654ms returns TRUE
T2CD8 002:266.825 JLINK_ReadReg(R15 (PC))
T2CD8 002:266.866 - 0.055ms returns 0x20000000
T2CD8 002:266.905 JLINK_ClrBPEx(BPHandle = 0x00000006)
T2CD8 002:266.936 - 0.045ms returns 0x00
T2CD8 002:266.972 JLINK_ReadReg(R0)
T2CD8 002:267.002 - 0.043ms returns 0x00000000
T2CD8 002:268.848 JLINK_WriteMem(0x20000164, 0x29C Bytes, ...)
T2CD8 002:268.895   Data:  4C 38 00 F0 63 F8 4F F4 40 40 00 F0 D3 FF 05 23 ...
T2CD8 002:268.958   CPU_WriteMem(668 bytes @ 0x20000164)
T2CD8 002:277.476 - 8.660ms returns 0x29C
T2CD8 002:277.542 JLINK_WriteMem(0x20000400, 0x164 Bytes, ...)
T2CD8 002:277.576   Data:  41 F4 70 61 3A 4A 08 3A 51 60 70 E0 38 49 3C 31 ...
T2CD8 002:277.640   CPU_WriteMem(356 bytes @ 0x20000400)
T2CD8 002:282.572 - 5.063ms returns 0x164
T2CD8 002:282.648 JLINK_HasError()
T2CD8 002:282.824 JLINK_WriteReg(R0, 0x08000800)
T2CD8 002:282.885 - 0.077ms returns 0
T2CD8 002:282.926 JLINK_WriteReg(R1, 0x00000400)
T2CD8 002:282.957 - 0.045ms returns 0
T2CD8 002:282.993 JLINK_WriteReg(R2, 0x20000164)
T2CD8 002:283.023 - 0.043ms returns 0
T2CD8 002:283.058 JLINK_WriteReg(R3, 0x00000000)
T2CD8 002:283.088 - 0.043ms returns 0
T2CD8 002:283.123 JLINK_WriteReg(R4, 0x00000000)
T2CD8 002:283.152 - 0.043ms returns 0
T2CD8 002:283.187 JLINK_WriteReg(R5, 0x00000000)
T2CD8 002:283.216 - 0.042ms returns 0
T2CD8 002:283.251 JLINK_WriteReg(R6, 0x00000000)
T2CD8 002:283.280 - 0.042ms returns 0
T2CD8 002:283.316 JLINK_WriteReg(R7, 0x00000000)
T2CD8 002:283.345 - 0.043ms returns 0
T2CD8 002:283.380 JLINK_WriteReg(R8, 0x00000000)
T2CD8 002:283.409 - 0.043ms returns 0
T2CD8 002:283.463 JLINK_WriteReg(R9, 0x20000160)
T2CD8 002:283.493 - 0.044ms returns 0
T2CD8 002:283.529 JLINK_WriteReg(R10, 0x00000000)
T2CD8 002:283.558 - 0.043ms returns 0
T2CD8 002:283.593 JLINK_WriteReg(R11, 0x00000000)
T2CD8 002:283.769 - 0.198ms returns 0
T2CD8 002:283.816 JLINK_WriteReg(R12, 0x00000000)
T2CD8 002:283.846 - 0.043ms returns 0
T2CD8 002:283.881 JLINK_WriteReg(R13 (SP), 0x20001000)
T2CD8 002:283.912 - 0.044ms returns 0
T2CD8 002:283.948 JLINK_WriteReg(R14, 0x20000001)
T2CD8 002:283.977 - 0.043ms returns 0
T2CD8 002:284.013 JLINK_WriteReg(R15 (PC), 0x200000F4)
T2CD8 002:284.042 - 0.043ms returns 0
T2CD8 002:284.078 JLINK_WriteReg(XPSR, 0x01000000)
T2CD8 002:284.107 - 0.043ms returns 0
T2CD8 002:284.143 JLINK_WriteReg(MSP, 0x20001000)
T2CD8 002:284.172 - 0.043ms returns 0
T2CD8 002:284.207 JLINK_WriteReg(PSP, 0x20001000)
T2CD8 002:284.236 - 0.043ms returns 0
T2CD8 002:284.271 JLINK_WriteReg(CFBP, 0x00000000)
T2CD8 002:284.300 - 0.042ms returns 0
T2CD8 002:284.337 JLINK_SetBPEx(Addr = 0x20000000, Type = 0xFFFFFFF2)
T2CD8 002:284.372 - 0.049ms returns 0x00000007
T2CD8 002:284.409 JLINK_Go()
T2CD8 002:284.468   CPU_ReadMem(4 bytes @ 0xE0001000)
T2CD8 002:290.584 - 6.208ms
T2CD8 002:290.651 JLINK_IsHalted()
T2CD8 002:291.325 - 0.707ms returns FALSE
T2CD8 002:291.392 JLINK_HasError()
T2CD8 002:297.364 JLINK_IsHalted()
T2CD8 002:298.083 - 0.751ms returns FALSE
T2CD8 002:298.149 JLINK_HasError()
T2CD8 002:299.927 JLINK_IsHalted()
T2CD8 002:300.647 - 0.753ms returns FALSE
T2CD8 002:300.714 JLINK_HasError()
T2CD8 002:302.681 JLINK_IsHalted()
T2CD8 002:303.413 - 0.764ms returns FALSE
T2CD8 002:303.479 JLINK_HasError()
T2CD8 002:305.675 JLINK_IsHalted()
T2CD8 002:306.354 - 0.711ms returns FALSE
T2CD8 002:306.421 JLINK_HasError()
T2CD8 002:308.375 JLINK_IsHalted()
T2CD8 002:309.105 - 0.762ms returns FALSE
T2CD8 002:309.179 JLINK_HasError()
T2CD8 002:311.005 JLINK_IsHalted()
T2CD8 002:311.714 - 0.741ms returns FALSE
T2CD8 002:311.780 JLINK_HasError()
T2CD8 002:314.002 JLINK_IsHalted()
T2CD8 002:314.715 - 0.745ms returns FALSE
T2CD8 002:314.781 JLINK_HasError()
T2CD8 002:319.986 JLINK_IsHalted()
T2CD8 002:320.723 - 0.769ms returns FALSE
T2CD8 002:320.790 JLINK_HasError()
T2CD8 002:322.757 JLINK_IsHalted()
T2CD8 002:328.704   CPU_ReadMem(2 bytes @ 0x20000000)
T2CD8 002:329.377 - 6.652ms returns TRUE
T2CD8 002:329.444 JLINK_ReadReg(R15 (PC))
T2CD8 002:329.484 - 0.055ms returns 0x20000000
T2CD8 002:329.522 JLINK_ClrBPEx(BPHandle = 0x00000007)
T2CD8 002:329.554 - 0.045ms returns 0x00
T2CD8 002:329.591 JLINK_ReadReg(R0)
T2CD8 002:329.620 - 0.044ms returns 0x00000000
T2CD8 002:331.446 JLINK_WriteMem(0x20000164, 0x29C Bytes, ...)
T2CD8 002:331.494   Data:  20 F0 01 00 4F F0 E0 21 08 61 0D 49 00 98 08 60 ...
T2CD8 002:331.558   CPU_WriteMem(668 bytes @ 0x20000164)
T2CD8 002:339.913 - 8.499ms returns 0x29C
T2CD8 002:339.986 JLINK_WriteMem(0x20000400, 0x164 Bytes, ...)
T2CD8 002:340.019   Data:  00 00 01 40 41 61 70 47 01 61 70 47 2D E9 F0 5F ...
T2CD8 002:340.092   CPU_WriteMem(356 bytes @ 0x20000400)
T2CD8 002:344.945 - 4.993ms returns 0x164
T2CD8 002:345.023 JLINK_HasError()
T2CD8 002:345.206 JLINK_WriteReg(R0, 0x08000C00)
T2CD8 002:345.267 - 0.077ms returns 0
T2CD8 002:345.308 JLINK_WriteReg(R1, 0x00000400)
T2CD8 002:345.339 - 0.045ms returns 0
T2CD8 002:345.375 JLINK_WriteReg(R2, 0x20000164)
T2CD8 002:345.404 - 0.043ms returns 0
T2CD8 002:345.440 JLINK_WriteReg(R3, 0x00000000)
T2CD8 002:345.469 - 0.043ms returns 0
T2CD8 002:345.504 JLINK_WriteReg(R4, 0x00000000)
T2CD8 002:345.533 - 0.043ms returns 0
T2CD8 002:345.569 JLINK_WriteReg(R5, 0x00000000)
T2CD8 002:345.598 - 0.042ms returns 0
T2CD8 002:345.633 JLINK_WriteReg(R6, 0x00000000)
T2CD8 002:345.662 - 0.042ms returns 0
T2CD8 002:345.697 JLINK_WriteReg(R7, 0x00000000)
T2CD8 002:345.726 - 0.042ms returns 0
T2CD8 002:345.761 JLINK_WriteReg(R8, 0x00000000)
T2CD8 002:345.790 - 0.043ms returns 0
T2CD8 002:345.825 JLINK_WriteReg(R9, 0x20000160)
T2CD8 002:345.854 - 0.042ms returns 0
T2CD8 002:345.889 JLINK_WriteReg(R10, 0x00000000)
T2CD8 002:345.918 - 0.043ms returns 0
T2CD8 002:345.953 JLINK_WriteReg(R11, 0x00000000)
T2CD8 002:345.982 - 0.042ms returns 0
T2CD8 002:346.018 JLINK_WriteReg(R12, 0x00000000)
T2CD8 002:346.053 - 0.057ms returns 0
T2CD8 002:346.097 JLINK_WriteReg(R13 (SP), 0x20001000)
T2CD8 002:346.129 - 0.045ms returns 0
T2CD8 002:346.164 JLINK_WriteReg(R14, 0x20000001)
T2CD8 002:346.193 - 0.043ms returns 0
T2CD8 002:346.229 JLINK_WriteReg(R15 (PC), 0x200000F4)
T2CD8 002:346.258 - 0.043ms returns 0
T2CD8 002:346.294 JLINK_WriteReg(XPSR, 0x01000000)
T2CD8 002:346.323 - 0.043ms returns 0
T2CD8 002:346.358 JLINK_WriteReg(MSP, 0x20001000)
T2CD8 002:346.387 - 0.043ms returns 0
T2CD8 002:346.423 JLINK_WriteReg(PSP, 0x20001000)
T2CD8 002:346.452 - 0.043ms returns 0
T2CD8 002:346.487 JLINK_WriteReg(CFBP, 0x00000000)
T2CD8 002:346.516 - 0.043ms returns 0
T2CD8 002:346.552 JLINK_SetBPEx(Addr = 0x20000000, Type = 0xFFFFFFF2)
T2CD8 002:346.586 - 0.048ms returns 0x00000008
T2CD8 002:346.623 JLINK_Go()
T2CD8 002:346.677   CPU_ReadMem(4 bytes @ 0xE0001000)
T2CD8 002:352.799 - 6.208ms
T2CD8 002:352.865 JLINK_IsHalted()
T2CD8 002:353.572 - 0.739ms returns FALSE
T2CD8 002:353.638 JLINK_HasError()
T2CD8 002:355.606 JLINK_IsHalted()
T2CD8 002:356.319 - 0.746ms returns FALSE
T2CD8 002:356.386 JLINK_HasError()
T2CD8 002:358.619 JLINK_IsHalted()
T2CD8 002:359.309 - 0.724ms returns FALSE
T2CD8 002:359.379 JLINK_HasError()
T2CD8 002:361.037 JLINK_IsHalted()
T2CD8 002:361.747 - 0.743ms returns FALSE
T2CD8 002:361.814 JLINK_HasError()
T2CD8 002:363.783 JLINK_IsHalted()
T2CD8 002:364.494 - 0.743ms returns FALSE
T2CD8 002:364.561 JLINK_HasError()
T2CD8 002:366.529 JLINK_IsHalted()
T2CD8 002:367.211 - 0.715ms returns FALSE
T2CD8 002:367.277 JLINK_HasError()
T2CD8 002:369.520 JLINK_IsHalted()
T2CD8 002:370.219 - 0.732ms returns FALSE
T2CD8 002:370.286 JLINK_HasError()
T2CD8 002:372.513 JLINK_IsHalted()
T2CD8 002:373.220 - 0.743ms returns FALSE
T2CD8 002:373.291 JLINK_HasError()
T2CD8 002:375.504 JLINK_IsHalted()
T2CD8 002:376.219 - 0.747ms returns FALSE
T2CD8 002:376.286 JLINK_HasError()
T2CD8 002:378.258 JLINK_IsHalted()
T2CD8 002:378.964 - 0.739ms returns FALSE
T2CD8 002:379.030 JLINK_HasError()
T2CD8 002:381.248 JLINK_IsHalted()
T2CD8 002:381.971 - 0.755ms returns FALSE
T2CD8 002:382.038 JLINK_HasError()
T2CD8 002:384.237 JLINK_IsHalted()
T2CD8 002:390.149   CPU_ReadMem(2 bytes @ 0x20000000)
T2CD8 002:390.889 - 6.684ms returns TRUE
T2CD8 002:390.956 JLINK_ReadReg(R15 (PC))
T2CD8 002:390.997 - 0.055ms returns 0x20000000
T2CD8 002:391.035 JLINK_ClrBPEx(BPHandle = 0x00000008)
T2CD8 002:391.067 - 0.045ms returns 0x00
T2CD8 002:391.104 JLINK_ReadReg(R0)
T2CD8 002:391.134 - 0.044ms returns 0x00000000
T2CD8 002:392.979 JLINK_WriteMem(0x20000164, 0x29C Bytes, ...)
T2CD8 002:393.026   Data:  00 02 30 00 00 08 01 40 2D E9 FC 41 04 46 0D 46 ...
T2CD8 002:393.091   CPU_WriteMem(668 bytes @ 0x20000164)
T2CD8 002:401.466 - 8.519ms returns 0x29C
T2CD8 002:401.540 JLINK_WriteMem(0x20000400, 0x164 Bytes, ...)
T2CD8 002:401.574   Data:  15 49 08 60 08 46 00 68 40 F4 00 40 08 60 C8 14 ...
T2CD8 002:401.637   CPU_WriteMem(356 bytes @ 0x20000400)
T2CD8 002:406.479 - 4.974ms returns 0x164
T2CD8 002:406.583 JLINK_HasError()
T2CD8 002:406.760 JLINK_WriteReg(R0, 0x08001000)
T2CD8 002:406.820 - 0.076ms returns 0
T2CD8 002:406.861 JLINK_WriteReg(R1, 0x00000400)
T2CD8 002:406.892 - 0.044ms returns 0
T2CD8 002:406.927 JLINK_WriteReg(R2, 0x20000164)
T2CD8 002:406.957 - 0.043ms returns 0
T2CD8 002:406.992 JLINK_WriteReg(R3, 0x00000000)
T2CD8 002:407.021 - 0.043ms returns 0
T2CD8 002:407.088 JLINK_WriteReg(R4, 0x00000000)
T2CD8 002:407.118 - 0.043ms returns 0
T2CD8 002:407.153 JLINK_WriteReg(R5, 0x00000000)
T2CD8 002:407.182 - 0.042ms returns 0
T2CD8 002:407.217 JLINK_WriteReg(R6, 0x00000000)
T2CD8 002:407.246 - 0.043ms returns 0
T2CD8 002:407.282 JLINK_WriteReg(R7, 0x00000000)
T2CD8 002:407.311 - 0.043ms returns 0
T2CD8 002:407.347 JLINK_WriteReg(R8, 0x00000000)
T2CD8 002:407.376 - 0.043ms returns 0
T2CD8 002:407.411 JLINK_WriteReg(R9, 0x20000160)
T2CD8 002:407.440 - 0.042ms returns 0
T2CD8 002:407.475 JLINK_WriteReg(R10, 0x00000000)
T2CD8 002:407.504 - 0.043ms returns 0
T2CD8 002:407.546 JLINK_WriteReg(R11, 0x00000000)
T2CD8 002:407.587 - 0.055ms returns 0
T2CD8 002:407.623 JLINK_WriteReg(R12, 0x00000000)
T2CD8 002:407.652 - 0.042ms returns 0
T2CD8 002:407.687 JLINK_WriteReg(R13 (SP), 0x20001000)
T2CD8 002:407.718 - 0.045ms returns 0
T2CD8 002:407.754 JLINK_WriteReg(R14, 0x20000001)
T2CD8 002:407.783 - 0.043ms returns 0
T2CD8 002:407.818 JLINK_WriteReg(R15 (PC), 0x200000F4)
T2CD8 002:407.848 - 0.043ms returns 0
T2CD8 002:407.883 JLINK_WriteReg(XPSR, 0x01000000)
T2CD8 002:407.913 - 0.043ms returns 0
T2CD8 002:407.948 JLINK_WriteReg(MSP, 0x20001000)
T2CD8 002:407.977 - 0.043ms returns 0
T2CD8 002:408.013 JLINK_WriteReg(PSP, 0x20001000)
T2CD8 002:408.042 - 0.043ms returns 0
T2CD8 002:408.077 JLINK_WriteReg(CFBP, 0x00000000)
T2CD8 002:408.106 - 0.043ms returns 0
T2CD8 002:408.142 JLINK_SetBPEx(Addr = 0x20000000, Type = 0xFFFFFFF2)
T2CD8 002:408.177 - 0.049ms returns 0x00000009
T2CD8 002:408.214 JLINK_Go()
T2CD8 002:408.267   CPU_ReadMem(4 bytes @ 0xE0001000)
T2CD8 002:414.311 - 6.130ms
T2CD8 002:414.378 JLINK_IsHalted()
T2CD8 002:415.070 - 0.725ms returns FALSE
T2CD8 002:415.137 JLINK_HasError()
T2CD8 002:421.130 JLINK_IsHalted()
T2CD8 002:421.780 - 0.679ms returns FALSE
T2CD8 002:421.842 JLINK_HasError()
T2CD8 002:427.078 JLINK_IsHalted()
T2CD8 002:427.800 - 0.754ms returns FALSE
T2CD8 002:427.866 JLINK_HasError()
T2CD8 002:429.839 JLINK_IsHalted()
T2CD8 002:430.565 - 0.758ms returns FALSE
T2CD8 002:430.632 JLINK_HasError()
T2CD8 002:432.826 JLINK_IsHalted()
T2CD8 002:433.563 - 0.769ms returns FALSE
T2CD8 002:433.630 JLINK_HasError()
T2CD8 002:435.818 JLINK_IsHalted()
T2CD8 002:436.564 - 0.778ms returns FALSE
T2CD8 002:436.630 JLINK_HasError()
T2CD8 002:438.810 JLINK_IsHalted()
T2CD8 002:439.566 - 0.789ms returns FALSE
T2CD8 002:439.633 JLINK_HasError()
T2CD8 002:441.802 JLINK_IsHalted()
T2CD8 002:442.564 - 0.795ms returns FALSE
T2CD8 002:442.631 JLINK_HasError()
T2CD8 002:444.794 JLINK_IsHalted()
T2CD8 002:450.797   CPU_ReadMem(2 bytes @ 0x20000000)
T2CD8 002:451.488 - 6.727ms returns TRUE
T2CD8 002:451.555 JLINK_ReadReg(R15 (PC))
T2CD8 002:451.595 - 0.054ms returns 0x20000000
T2CD8 002:451.634 JLINK_ClrBPEx(BPHandle = 0x00000009)
T2CD8 002:451.665 - 0.045ms returns 0x00
T2CD8 002:451.702 JLINK_ReadReg(R0)
T2CD8 002:451.731 - 0.043ms returns 0x00000000
T2CD8 002:454.082 JLINK_WriteMem(0x20000164, 0x29C Bytes, ...)
T2CD8 002:454.137   Data:  80 40 00 F0 7D FE 01 A8 00 F0 F2 FE 0A 20 AD F8 ...
T2CD8 002:454.207   CPU_WriteMem(668 bytes @ 0x20000164)
T2CD8 002:462.619 - 8.549ms returns 0x29C
T2CD8 002:462.642 JLINK_WriteMem(0x20000400, 0x164 Bytes, ...)
T2CD8 002:462.649   Data:  1B 1D 1A 80 70 47 00 00 F1 F1 FF FF 3C 08 00 40 ...
T2CD8 002:462.664   CPU_WriteMem(356 bytes @ 0x20000400)
T2CD8 002:467.411 - 4.775ms returns 0x164
T2CD8 002:467.426 JLINK_HasError()
T2CD8 002:467.435 JLINK_WriteReg(R0, 0x08001400)
T2CD8 002:467.443 - 0.011ms returns 0
T2CD8 002:467.450 JLINK_WriteReg(R1, 0x00000400)
T2CD8 002:467.456 - 0.008ms returns 0
T2CD8 002:467.520 JLINK_WriteReg(R2, 0x20000164)
T2CD8 002:467.532 - 0.014ms returns 0
T2CD8 002:467.540 JLINK_WriteReg(R3, 0x00000000)
T2CD8 002:467.546 - 0.008ms returns 0
T2CD8 002:467.553 JLINK_WriteReg(R4, 0x00000000)
T2CD8 002:467.558 - 0.008ms returns 0
T2CD8 002:467.565 JLINK_WriteReg(R5, 0x00000000)
T2CD8 002:467.571 - 0.008ms returns 0
T2CD8 002:467.578 JLINK_WriteReg(R6, 0x00000000)
T2CD8 002:467.583 - 0.008ms returns 0
T2CD8 002:467.590 JLINK_WriteReg(R7, 0x00000000)
T2CD8 002:467.596 - 0.008ms returns 0
T2CD8 002:467.602 JLINK_WriteReg(R8, 0x00000000)
T2CD8 002:467.608 - 0.008ms returns 0
T2CD8 002:467.615 JLINK_WriteReg(R9, 0x20000160)
T2CD8 002:467.620 - 0.008ms returns 0
T2CD8 002:467.627 JLINK_WriteReg(R10, 0x00000000)
T2CD8 002:467.633 - 0.008ms returns 0
T2CD8 002:467.640 JLINK_WriteReg(R11, 0x00000000)
T2CD8 002:467.645 - 0.008ms returns 0
T2CD8 002:467.652 JLINK_WriteReg(R12, 0x00000000)
T2CD8 002:467.658 - 0.008ms returns 0
T2CD8 002:467.665 JLINK_WriteReg(R13 (SP), 0x20001000)
T2CD8 002:467.674 - 0.012ms returns 0
T2CD8 002:467.681 JLINK_WriteReg(R14, 0x20000001)
T2CD8 002:467.687 - 0.008ms returns 0
T2CD8 002:467.694 JLINK_WriteReg(R15 (PC), 0x200000F4)
T2CD8 002:467.700 - 0.008ms returns 0
T2CD8 002:467.707 JLINK_WriteReg(XPSR, 0x01000000)
T2CD8 002:467.712 - 0.008ms returns 0
T2CD8 002:467.719 JLINK_WriteReg(MSP, 0x20001000)
T2CD8 002:467.725 - 0.008ms returns 0
T2CD8 002:467.732 JLINK_WriteReg(PSP, 0x20001000)
T2CD8 002:467.737 - 0.008ms returns 0
T2CD8 002:467.744 JLINK_WriteReg(CFBP, 0x00000000)
T2CD8 002:467.750 - 0.008ms returns 0
T2CD8 002:467.757 JLINK_SetBPEx(Addr = 0x20000000, Type = 0xFFFFFFF2)
T2CD8 002:467.764 - 0.009ms returns 0x0000000A
T2CD8 002:467.771 JLINK_Go()
T2CD8 002:467.783   CPU_ReadMem(4 bytes @ 0xE0001000)
T2CD8 002:473.381 - 5.618ms
T2CD8 002:473.397 JLINK_IsHalted()
T2CD8 002:473.883 - 0.492ms returns FALSE
T2CD8 002:473.896 JLINK_HasError()
T2CD8 002:477.114 JLINK_IsHalted()
T2CD8 002:477.711 - 0.602ms returns FALSE
T2CD8 002:477.724 JLINK_HasError()
T2CD8 002:478.822 JLINK_IsHalted()
T2CD8 002:479.410 - 0.593ms returns FALSE
T2CD8 002:479.423 JLINK_HasError()
T2CD8 002:480.521 JLINK_IsHalted()
T2CD8 002:481.108 - 0.594ms returns FALSE
T2CD8 002:481.121 JLINK_HasError()
T2CD8 002:482.545 JLINK_IsHalted()
T2CD8 002:483.131 - 0.591ms returns FALSE
T2CD8 002:483.144 JLINK_HasError()
T2CD8 002:484.518 JLINK_IsHalted()
T2CD8 002:485.088 - 0.576ms returns FALSE
T2CD8 002:485.100 JLINK_HasError()
T2CD8 002:486.516 JLINK_IsHalted()
T2CD8 002:487.130 - 0.619ms returns FALSE
T2CD8 002:487.142 JLINK_HasError()
T2CD8 002:489.154 JLINK_IsHalted()
T2CD8 002:489.697 - 0.549ms returns FALSE
T2CD8 002:489.710 JLINK_HasError()
T2CD8 002:490.825 JLINK_IsHalted()
T2CD8 002:491.413 - 0.594ms returns FALSE
T2CD8 002:491.426 JLINK_HasError()
T2CD8 002:492.827 JLINK_IsHalted()
T2CD8 002:493.417 - 0.596ms returns FALSE
T2CD8 002:493.432 JLINK_HasError()
T2CD8 002:494.543 JLINK_IsHalted()
T2CD8 002:495.127 - 0.591ms returns FALSE
T2CD8 002:495.141 JLINK_HasError()
T2CD8 002:496.536 JLINK_IsHalted()
T2CD8 002:497.118 - 0.589ms returns FALSE
T2CD8 002:497.134 JLINK_HasError()
T2CD8 002:498.239 JLINK_IsHalted()
T2CD8 002:498.819 - 0.588ms returns FALSE
T2CD8 002:498.834 JLINK_HasError()
T2CD8 002:500.115 JLINK_IsHalted()
T2CD8 002:500.663 - 0.577ms returns FALSE
T2CD8 002:500.698 JLINK_HasError()
T2CD8 002:502.750 JLINK_IsHalted()
T2CD8 002:503.339 - 0.595ms returns FALSE
T2CD8 002:503.351 JLINK_HasError()
T2CD8 002:504.450 JLINK_IsHalted()
T2CD8 002:510.134   CPU_ReadMem(2 bytes @ 0x20000000)
T2CD8 002:510.705 - 6.263ms returns TRUE
T2CD8 002:510.721 JLINK_ReadReg(R15 (PC))
T2CD8 002:510.731 - 0.013ms returns 0x20000000
T2CD8 002:510.739 JLINK_ClrBPEx(BPHandle = 0x0000000A)
T2CD8 002:510.746 - 0.010ms returns 0x00
T2CD8 002:510.755 JLINK_ReadReg(R0)
T2CD8 002:510.761 - 0.009ms returns 0x00000000
T2CD8 002:511.196 JLINK_WriteMem(0x20000164, 0x29C Bytes, ...)
T2CD8 002:511.206   Data:  01 4B DA 61 70 47 00 00 00 10 02 40 29 B1 06 4A ...
T2CD8 002:511.222   CPU_WriteMem(668 bytes @ 0x20000164)
T2CD8 002:519.475 - 8.287ms returns 0x29C
T2CD8 002:519.494 JLINK_WriteMem(0x20000400, 0x164 Bytes, ...)
T2CD8 002:519.502   Data:  00 20 AD F8 00 00 4F F4 82 70 AD F8 02 00 00 20 ...
T2CD8 002:519.517   CPU_WriteMem(356 bytes @ 0x20000400)
T2CD8 002:524.218 - 4.733ms returns 0x164
T2CD8 002:524.239 JLINK_HasError()
T2CD8 002:524.250 JLINK_WriteReg(R0, 0x08001800)
T2CD8 002:524.261 - 0.014ms returns 0
T2CD8 002:524.331 JLINK_WriteReg(R1, 0x00000400)
T2CD8 002:524.348 - 0.021ms returns 0
T2CD8 002:524.359 JLINK_WriteReg(R2, 0x20000164)
T2CD8 002:524.367 - 0.012ms returns 0
T2CD8 002:524.377 JLINK_WriteReg(R3, 0x00000000)
T2CD8 002:524.385 - 0.011ms returns 0
T2CD8 002:524.395 JLINK_WriteReg(R4, 0x00000000)
T2CD8 002:524.402 - 0.011ms returns 0
T2CD8 002:524.412 JLINK_WriteReg(R5, 0x00000000)
T2CD8 002:524.420 - 0.011ms returns 0
T2CD8 002:524.429 JLINK_WriteReg(R6, 0x00000000)
T2CD8 002:524.440 - 0.015ms returns 0
T2CD8 002:524.451 JLINK_WriteReg(R7, 0x00000000)
T2CD8 002:524.459 - 0.011ms returns 0
T2CD8 002:524.468 JLINK_WriteReg(R8, 0x00000000)
T2CD8 002:524.476 - 0.011ms returns 0
T2CD8 002:524.486 JLINK_WriteReg(R9, 0x20000160)
T2CD8 002:524.494 - 0.011ms returns 0
T2CD8 002:524.503 JLINK_WriteReg(R10, 0x00000000)
T2CD8 002:524.511 - 0.011ms returns 0
T2CD8 002:524.521 JLINK_WriteReg(R11, 0x00000000)
T2CD8 002:524.528 - 0.011ms returns 0
T2CD8 002:524.538 JLINK_WriteReg(R12, 0x00000000)
T2CD8 002:524.546 - 0.011ms returns 0
T2CD8 002:524.555 JLINK_WriteReg(R13 (SP), 0x20001000)
T2CD8 002:524.564 - 0.012ms returns 0
T2CD8 002:524.573 JLINK_WriteReg(R14, 0x20000001)
T2CD8 002:524.581 - 0.011ms returns 0
T2CD8 002:524.591 JLINK_WriteReg(R15 (PC), 0x200000F4)
T2CD8 002:524.599 - 0.011ms returns 0
T2CD8 002:524.608 JLINK_WriteReg(XPSR, 0x01000000)
T2CD8 002:524.616 - 0.011ms returns 0
T2CD8 002:524.626 JLINK_WriteReg(MSP, 0x20001000)
T2CD8 002:524.634 - 0.011ms returns 0
T2CD8 002:524.643 JLINK_WriteReg(PSP, 0x20001000)
T2CD8 002:524.651 - 0.011ms returns 0
T2CD8 002:524.661 JLINK_WriteReg(CFBP, 0x00000000)
T2CD8 002:524.668 - 0.011ms returns 0
T2CD8 002:524.678 JLINK_SetBPEx(Addr = 0x20000000, Type = 0xFFFFFFF2)
T2CD8 002:524.687 - 0.013ms returns 0x0000000B
T2CD8 002:524.697 JLINK_Go()
T2CD8 002:524.712   CPU_ReadMem(4 bytes @ 0xE0001000)
T2CD8 002:530.433 - 5.746ms
T2CD8 002:530.455 JLINK_IsHalted()
T2CD8 002:530.961 - 0.516ms returns FALSE
T2CD8 002:530.984 JLINK_HasError()
T2CD8 002:534.527 JLINK_IsHalted()
T2CD8 002:535.138 - 0.617ms returns FALSE
T2CD8 002:535.151 JLINK_HasError()
T2CD8 002:537.201 JLINK_IsHalted()
T2CD8 002:537.830 - 0.636ms returns FALSE
T2CD8 002:537.843 JLINK_HasError()
T2CD8 002:538.937 JLINK_IsHalted()
T2CD8 002:539.581 - 0.649ms returns FALSE
T2CD8 002:539.594 JLINK_HasError()
